
**** 02/08/19 17:47:31 ***** PSpice 16.6.0 (October 2012) ***** ID# 0 ********

 ** Profile: "SCHEMATIC8-ex8"  [ H:\Documents\Labs\ARehmanSPICELabs-PSpiceFiles\SCHEMATIC8\ex8.sim ] 


 ****     CIRCUIT DESCRIPTION


******************************************************************************




** Creating circuit file "ex8.cir" 
** WARNING: THIS AUTOMATICALLY GENERATED FILE MAY BE OVERWRITTEN BY SUBSEQUENT SIMULATIONS

*Libraries: 
* Profile Libraries :
* Local Libraries :
* From [PSPICE NETLIST] section of H:\cdssetup\OrCAD_PSpice/16.6.0/PSpice.ini file:
.lib "nom.lib" 

*Analysis directives: 
.AC DEC 10 10 10k
.OPTIONS ADVCONV
.PROBE64 V(alias(*)) I(alias(*)) W(alias(*)) D(alias(*)) NOISE(alias(*)) 
.INC "..\SCHEMATIC8.net" 



**** INCLUDING SCHEMATIC8.net ****
* source AREHMANSPICELABS
X_U1A         N01060 N01106 N01010 N01020 N01030 OP-471A
R_R3         N01106 N01030  1591.5 TC=0,0 
V_V2         N01010 0 15
V_V3         0 N01020 15
V_V1         N01847 0 DC 0Vdc AC 1Vac 
C_C1         N01847 N01056  0.05u  TC=0,0 
C_C2         N01056 N01060  0.05u  TC=0,0 
R_R2         N01056 N01030  3183.1 TC=0,0 
R_R1         N01060 0  3183.1 TC=0,0 

**** RESUMING ex8.cir ****
.END

**** 02/08/19 17:47:31 ***** PSpice 16.6.0 (October 2012) ***** ID# 0 ********

 ** Profile: "SCHEMATIC8-ex8"  [ H:\Documents\Labs\ARehmanSPICELabs-PSpiceFiles\SCHEMATIC8\ex8.sim ] 


 ****     Diode MODEL PARAMETERS


******************************************************************************




               X_U1A.dx        X_U1A.dy        
          IS  800.000000E-18  800.000000E-18 
          RS                    1.000000E-03 
         CJO                   10.000000E-12 


**** 02/08/19 17:47:31 ***** PSpice 16.6.0 (October 2012) ***** ID# 0 ********

 ** Profile: "SCHEMATIC8-ex8"  [ H:\Documents\Labs\ARehmanSPICELabs-PSpiceFiles\SCHEMATIC8\ex8.sim ] 


 ****     BJT MODEL PARAMETERS


******************************************************************************




               X_U1A.qx        
               NPN             
       LEVEL    1            
          IS  800.000000E-18 
          BF    7.500000E+03 
          NF    1            
          BR    1            
          NR    1            
         ISS    0            
          RE    0            
          RC    0            
         CJE    0            
         VJE     .75         
         CJC    0            
         VJC     .75         
         MJC     .33         
        XCJC    1            
         CJS    0            
         VJS     .75         
          KF    0            
          AF    1            
          CN    2.42         
           D     .87         


**** 02/08/19 17:47:31 ***** PSpice 16.6.0 (October 2012) ***** ID# 0 ********

 ** Profile: "SCHEMATIC8-ex8"  [ H:\Documents\Labs\ARehmanSPICELabs-PSpiceFiles\SCHEMATIC8\ex8.sim ] 


 ****     SMALL SIGNAL BIAS SOLUTION       TEMPERATURE =   27.000 DEG C


******************************************************************************



 NODE   VOLTAGE     NODE   VOLTAGE     NODE   VOLTAGE     NODE   VOLTAGE


(N01010)   15.0000 (N01020)  -15.0000 (N01030)-24.61E-06 (N01056)-24.61E-06     

(N01060)-50.69E-06 (N01106)-49.95E-06 (N01847)    0.0000 (X_U1A.6) 5.361E-09    

(X_U1A.7)-24.61E-06                   (X_U1A.8)-24.61E-06                       

(X_U1A.9)    0.0000                   (X_U1A.10)    -.7373                      

(X_U1A.11)   14.9020                  (X_U1A.12)   14.9020                      

(X_U1A.13)    -.6655                  (X_U1A.14)    -.6655                      

(X_U1A.53)   13.0000                  (X_U1A.54)  -13.0000                      

(X_U1A.90) 15.92E-06                  (X_U1A.91)   25.0000                      

(X_U1A.92)  -25.0000                  (X_U1A.99)    0.0000                  




    VOLTAGE SOURCE CURRENTS
    NAME         CURRENT

    V_V2        -2.300E-03
    V_V3        -2.300E-03
    V_V1         0.000E+00
    X_U1A.vb     5.361E-14
    X_U1A.vc     1.300E-11
    X_U1A.ve     1.455E-11
    X_U1A.vlim   1.592E-08
    X_U1A.vlp   -2.500E-11
    X_U1A.vln   -2.500E-11

    TOTAL POWER DISSIPATION   6.90E-02  WATTS



          JOB CONCLUDED

**** 02/08/19 17:47:31 ***** PSpice 16.6.0 (October 2012) ***** ID# 0 ********

 ** Profile: "SCHEMATIC8-ex8"  [ H:\Documents\Labs\ARehmanSPICELabs-PSpiceFiles\SCHEMATIC8\ex8.sim ] 


 ****     JOB STATISTICS SUMMARY


******************************************************************************



  Total job time (using Solver 1)   =         .08
