
**** 02/23/19 20:19:33 ***** PSpice 16.6.0 (October 2012) ***** ID# 0 ********

 ** Profile: "SCHEMATIC6-ex6"  [ H:\Documents\Labs\arehmanspicelabs-pspicefiles\schematic6\ex6.sim ] 


 ****     CIRCUIT DESCRIPTION


******************************************************************************




** Creating circuit file "ex6.cir" 
** WARNING: THIS AUTOMATICALLY GENERATED FILE MAY BE OVERWRITTEN BY SUBSEQUENT SIMULATIONS

*Libraries: 
* Profile Libraries :
* Local Libraries :
* From [PSPICE NETLIST] section of H:\cdssetup\OrCAD_PSpice/16.6.0/PSpice.ini file:
.lib "nom.lib" 

*Analysis directives: 
.TRAN  0 8m 0 
.OPTIONS ADVCONV
.PROBE64 V(alias(*)) I(alias(*)) W(alias(*)) D(alias(*)) NOISE(alias(*)) 
.INC "..\SCHEMATIC6.net" 



**** INCLUDING SCHEMATIC6.net ****
* source AREHMANSPICELABS
X_U1A         0 N00315 N00354 N00347 N00335 OP-471A
V_V1         N00311 0  
+PULSE -1 1 1m 1u 1u 1.08m 2m
R_R1         N00311 N00315  2.5k TC=0,0 
C_C1         N00315 N00335  100n  TC=0,0 
V_V2         N00354 0 15
V_V3         0 N00347 15

**** RESUMING ex6.cir ****
.END

**** 02/23/19 20:19:33 ***** PSpice 16.6.0 (October 2012) ***** ID# 0 ********

 ** Profile: "SCHEMATIC6-ex6"  [ H:\Documents\Labs\arehmanspicelabs-pspicefiles\schematic6\ex6.sim ] 


 ****     Diode MODEL PARAMETERS


******************************************************************************




               X_U1A.dx        X_U1A.dy        
          IS  800.000000E-18  800.000000E-18 
          RS                    1.000000E-03 
         CJO                   10.000000E-12 


**** 02/23/19 20:19:33 ***** PSpice 16.6.0 (October 2012) ***** ID# 0 ********

 ** Profile: "SCHEMATIC6-ex6"  [ H:\Documents\Labs\arehmanspicelabs-pspicefiles\schematic6\ex6.sim ] 


 ****     BJT MODEL PARAMETERS


******************************************************************************




               X_U1A.qx        
               NPN             
       LEVEL    1            
          IS  800.000000E-18 
          BF    7.500000E+03 
          NF    1            
          BR    1            
          NR    1            
         ISS    0            
          RE    0            
          RC    0            
         CJE    0            
         VJE     .75         
         CJC    0            
         VJC     .75         
         MJC     .33         
        XCJC    1            
         CJS    0            
         VJS     .75         
          KF    0            
          AF    1            
          CN    2.42         
           D     .87         


**** 02/23/19 20:19:33 ***** PSpice 16.6.0 (October 2012) ***** ID# 0 ********

 ** Profile: "SCHEMATIC6-ex6"  [ H:\Documents\Labs\arehmanspicelabs-pspicefiles\schematic6\ex6.sim ] 


 ****     INITIAL TRANSIENT SOLUTION       TEMPERATURE =   27.000 DEG C


******************************************************************************



 NODE   VOLTAGE     NODE   VOLTAGE     NODE   VOLTAGE     NODE   VOLTAGE


(N00311)   -1.0000 (N00315)   -1.0000 (N00335)   13.8040 (N00347)  -15.0000     

(N00354)   15.0000 (X_U1A.6)  -23.8940                   (X_U1A.7)   13.8060    

(X_U1A.8)   13.8060                   (X_U1A.9)    0.0000                       

(X_U1A.10)    -.8270                  (X_U1A.11)   15.0000                      

(X_U1A.12)   14.8050                  (X_U1A.13)    -.8270                      

(X_U1A.14)    -.6834                  (X_U1A.53)   13.0000                      

(X_U1A.54)  -13.0000                  (X_U1A.90)   25.6840                      

(X_U1A.91)   25.0000                  (X_U1A.92)  -25.0000                      

(X_U1A.99)    0.0000                  




    VOLTAGE SOURCE CURRENTS
    NAME         CURRENT

    V_V1         1.600E-11
    V_V2         2.338E-02
    V_V3        -2.300E-03
    X_U1A.vb    -2.389E-04
    X_U1A.vc    -2.568E-02
    X_U1A.ve     2.836E-11
    X_U1A.vlim   2.568E-02
    X_U1A.vlp    2.435E-04
    X_U1A.vln   -5.068E-11

    TOTAL POWER DISSIPATION  -2.71E-01  WATTS



          JOB CONCLUDED

**** 02/23/19 20:19:33 ***** PSpice 16.6.0 (October 2012) ***** ID# 0 ********

 ** Profile: "SCHEMATIC6-ex6"  [ H:\Documents\Labs\arehmanspicelabs-pspicefiles\schematic6\ex6.sim ] 


 ****     JOB STATISTICS SUMMARY


******************************************************************************



  Total job time (using Solver 1)   =         .09
